Gap,Rotation,freq (GHz)Freq,VSWR,S11dB,S21dB,S11,S21
2.8,70,3.065,6.522751002,-2.684424482,-3.670645613,-0.5387249282934097-0.4987351144196772i,0.3631773520327829-0.5455041599602892i
2.8,70,3.07,6.54347227,-2.675788376,-3.680616294,-0.5447381352032572-0.49324885950124625i,0.35636714058048957-0.5490812069675916i
2.8,70,3.075,6.564146199,-2.667227632,-3.690560728,-0.5506843784200147-0.48769493038111117i,0.3495349294571834-0.5525694699806043i
2.8,70,3.08,6.584780225,-2.658738281,-3.700483101,-0.5565637706996408-0.48207379654214944i,0.3426808194762909-0.5559693566226585i
2.8,70,3.085,6.605382132,-2.650316305,-3.710387647,-0.5623764283873731-0.47638589380429597i,0.3358048867238984-0.5592812391191171i
2.8,70,3.09,6.62596004,-2.641957642,-3.720278644,-0.5681224695605147-0.4706316241918982i,0.32890718477971775-0.5625054532692101i
2.8,70,3.095,6.646522392,-2.633658198,-3.730160418,-0.5738020121584011-0.4648113558944268i,0.3219877469786879-0.5656422975390233i
2.8,70,3.1,6.667077942,-2.62541385,-3.740037336,-0.5794151721043932-0.45892542332160907i,0.3150465887064842-0.5686920322771994i
2.8,70,3.105,6.687635741,-2.617220451,-3.749913805,-0.5849620614248212-0.4529741272537941i,0.30808370972215443-0.5716548790545091i
2.8,70,3.11,6.708205132,-2.609073839,-3.759794271,-0.5904427863698661-0.44695773508808884i,0.3010990965010682-0.5745310201280712i
2.8,70,3.115,6.72879573,-2.600969843,-3.769683213,-0.5958574455414221-0.44087648118052164i,0.29409272459136754-0.5773205980305905i
2.8,70,3.12,6.749417417,-2.592904284,-3.779585138,-0.6012061280330134-0.4347305672842092i,0.28706456097712274-0.5800237152845975i
2.8,70,3.125,6.770080331,-2.584872987,-3.789504582,-0.6064889115868525-0.42852016308321944i,0.2800145664414403-0.5826404342412902i
2.8,70,3.13,6.790794854,-2.576871779,-3.799446098,-0.6117058607731337-0.4222454068215338i,0.2729426979228424-0.5851707770431785i
2.8,70,3.135,6.811571604,-2.568896499,-3.809414255,-0.6168570251966351-0.4159064060262261i,0.2658489108583188-0.587614725709382i
2.8,70,3.14,6.832421429,-2.560943,-3.819413631,-0.6219424377356598-0.4095032383236894i,0.25873316150657466-0.5899722223420384i
2.8,70,3.145,6.853355395,-2.553007153,-3.829448807,-0.6269621128183139-0.4030359523474492i,0.25159540924512336-0.5922431694519359i
2.8,70,3.15,6.874384784,-2.545084852,-3.839524357,-0.6319160447410249-0.3965045687358287i,0.24443561883503134-0.5944274304011374i
2.8,70,3.155,6.895521084,-2.537172015,-3.849644846,-0.6368042060341376-0.38990908121744083i,0.2372537626473008-0.5965248299600121i
2.8,70,3.16,6.916775988,-2.529264588,-3.859814819,-0.6416265458793126-0.38324945778221314i,0.23004982284505834-0.5985351549758016i
2.8,70,3.165,6.938161388,-2.521358549,-3.870038791,-0.6463829885833244-0.3765256419353786i,0.2228237935159443-0.6004581551494974i
2.8,70,3.17,6.959689371,-2.513449909,-3.880321246,-0.6510734321127398-0.36973755403160585i,0.21557568274931316-0.6022935439175569i
2.8,70,3.175,6.981372224,-2.505534713,-3.890666617,-0.6556977466937784-0.36288509268618296i,0.20830551465310365-0.6040409994346815i
2.8,70,3.18,7.003222424,-2.497609046,-3.901079289,-0.6602557734815137-0.35596813625992624i,0.20101333130549784-0.6057001656536392i
2.8,70,3.185,7.025252649,-2.489669026,-3.911563581,-0.6647473233023661-0.3489865444142502i,0.19369919463675506-0.6072706534978645i
2.8,70,3.19,7.047475773,-2.481710814,-3.922123738,-0.6691721754736627-0.34194015973260483i,0.18636318823689144-0.6087520421223548i
2.8,70,3.195,7.069904873,-2.473730609,-3.932763923,-0.6735300767038139-0.334828809404281i,0.17900541908517123-0.6101438802581804i
2.8,70,3.2,7.092553233,-2.465724648,-3.943488208,-0.6778207400764348-0.32765230696637726i,0.17162601919767353-0.6114456876357385i
2.8,70,3.205,7.115434353,-2.45768921,-3.954300557,-0.6820438441215086-0.320410454099537i,0.1642251471895121-0.612656956481723i
2.8,70,3.21,7.138561953,-2.44962061,-3.965204822,-0.6861990319764363-0.313103042472895i,0.15680298974860102-0.6137771530846529i
2.8,70,3.215,7.161949984,-2.441515205,-3.976204731,-0.6902859106395635-0.3057298556335109i,0.14935976301818019-0.6148057194236561i
2.8,70,3.22,7.185612643,-2.433369385,-3.987303873,-0.6943040503185033-0.29829067093542694i,0.14189571388563776-0.6157420748551258i
2.8,70,3.225,7.209564379,-2.425179577,-3.998505693,-0.6982529838753057-0.2907852615033633i,0.13441112117549672-0.616585617851788i
2.8,70,3.23,7.233819913,-2.416942243,-4.009813473,-0.7021322063702373-0.2832133982259541i,0.12690629674475776-0.6173357277886447i
2.8,70,3.235,7.258394249,-2.408653875,-4.02123033,-0.70594117470565-0.2755748517733344i,0.11938158647911803-0.6179917667702326i
2.8,70,3.24,7.283302698,-2.400310996,-4.032759196,-0.7096793073711215-0.26786939463381637i,0.11183737118891338-0.618553081493614i
2.8,70,3.245,7.308560892,-2.391910155,-4.044402812,-0.7133459842907565-0.2600968031643381i,0.10427406740394951-0.6190190051415151i
2.8,70,3.25,7.334184806,-2.383447926,-4.056163714,-0.7169405467732382-0.2522568596493254i,0.09669212806671056-0.6193888593000477i
2.8,70,3.255,7.359249689,-2.375228406,-4.068159717,-0.7204305671118758-0.2443590568331898i,0.08912065330763698-0.6196494318852678i
2.8,70,3.26,7.384220006,-2.367096422,-4.080067146,-0.723819629527853-0.23643468561722475i,0.08157995467751385-0.619822203599222i
2.8,70,3.265,7.409097907,-2.359050059,-4.091890308,-0.7271081878358321-0.22848445526787253i,0.07407008191778065-0.6199079936715194i
2.8,70,3.27,7.433886095,-2.351087267,-4.103633556,-0.7302966991023971-0.2205090389269996i,0.06659105769564627-0.6199075856573937i
2.8,70,3.275,7.458587823,-2.343205868,-4.115301289,-0.7333856218384397-0.2125090735928228i,0.05914287976338636-0.6198217263951273i
2.8,70,3.28,7.483206877,-2.335403562,-4.126897958,-0.7363754141842348-0.20448516018784021i,0.051725523162920506-0.6196511250790694i
2.8,70,3.285,7.507747566,-2.327677941,-4.138428068,-0.7392665320915349-0.19643786371463404i,0.04433894246931118-0.619396452450411i
2.8,70,3.29,7.532214711,-2.320026489,-4.149896177,-0.7420594275071031-0.18836771350017237i,0.036983074066714264-0.6190583401075302i
2.8,70,3.295,7.556613629,-2.312446598,-4.161306907,-0.744754546562137-0.18027520352901308i,0.02965783845022024-0.6186373799373209i
2.8,70,3.3,7.580950123,-2.304935567,-4.172664934,-0.7473523277721272-0.17216079286556502i,0.022363142546959286-0.6181341236685426i
2.8,70,3.305,7.605230466,-2.297490615,-4.183975002,-0.7498532002516907-0.16402490616532578i,0.015098882049801145-0.6175490825478557i
2.8,70,3.31,7.629461384,-2.290108889,-4.195241912,-0.7522575819489641-0.15586793427476164i,0.007864943756962253-0.6168827271387974i
2.8,70,3.315,7.653650048,-2.282787465,-4.206470531,-0.7545658779041415-0.1476902349192487i,6.612079108379488E-4-0.6161354872435786i
2.8,70,3.32,7.67780405,-2.275523362,-4.21766579,-0.7567784785367396-0.1394921334782402i,-0.0065124494705916395-0.6153077519472054i
2.8,70,3.325,7.701931396,-2.268313544,-4.228832679,-0.7588957579661406-0.13127392384657383i,-0.013656154276380953-0.6143998697830158i
2.8,70,3.33,7.726040486,-2.26115493,-4.239976253,-0.7609180723699349-0.12303586938057627i,-0.020770032005784596-0.6134121490183867i
2.8,70,3.335,7.750140099,-2.254044398,-4.251101626,-0.7628457583845362-0.1147782039273746i,-0.027854205498390405-0.6123448580589512i
2.8,70,3.34,7.774239382,-2.24697879,-4.262213969,-0.7646791315524615-0.10650113293556833i,-0.03490879269751822-0.6111982259693403i
2.8,70,3.345,7.79834783,-2.239954923,-4.273318512,-0.7664184848206055-0.0982048346451735i,-0.04193390445303796-0.6099724431080779i
2.8,70,3.35,7.822475277,-2.232969589,-4.284420535,-0.768064087093712-0.08988946135450167i,-0.04892964236959456-0.6086676618739414i
2.8,70,3.355,7.846631878,-2.226019563,-4.295525368,-0.7696161818471816-0.08155514076140088i,-0.0558960967060412-0.6072839975607454i
2.8,70,3.36,7.870828096,-2.219101609,-4.306638387,-0.7710749858031659-0.07320197737605016i,-0.06283334433167602-0.605821529317202i
2.8,70,3.365,7.895074693,-2.212212482,-4.317765009,-0.7724406876738206-0.06483005400227292i,-0.06974144674465349-0.6042803012082045i
2.8,70,3.37,7.919382716,-2.205348936,-4.328910687,-0.7737134469753818-0.05643943328411536i,-0.07662044815769989-0.6026603233735875i
2.8,70,3.375,7.943763483,-2.198507725,-4.340080905,-0.7748933929166096-0.04803015931422467i,-0.08347037365600407-0.6009615732801572i
2.8,70,3.38,7.968228579,-2.191685609,-4.35128117,-0.7759806233649221-0.03960225930036003i,-0.09029122743188238-0.5991839970625182i
2.8,70,3.385,7.992789842,-2.184879358,-4.36251701,-0.7769752038933752-0.031155745286179124i,-0.09708299110052805-0.5973275109479922i
2.8,70,3.39,8.017459355,-2.178085752,-4.373793964,-0.7778771669114322-0.0226906159222603i,-0.10384562210085904-0.5953920027607228i
2.8,70,3.395,8.042249444,-2.171301587,-4.385117575,-0.77868651088225-0.014206858283153273i,-0.11057905218516466-0.5933773334998362i
2.8,70,3.4,8.067172666,-2.164523678,-4.396493383,-0.779403199628985-0.005704449726094071i,-0.11728318600093447-0.5912833389863851i
2.8,70,3.405,8.092241811,-2.157748858,-4.407926917,-0.7800271617323827+0.002816640213123313i,-0.12395789976792257-0.5891098315736163i
2.8,70,3.41,8.117469893,-2.150973983,-4.419423687,-0.7805582900216753+0.011356447891755874i,-0.13060304005316592-0.5868566019150002i
2.8,70,3.415,8.142870153,-2.144195932,-4.430989173,-0.7809964411605642+0.019915013603953938i,-0.13721842264633646-0.5845234207843295i
2.8,70,3.42,8.168456058,-2.137411609,-4.442628821,-0.7813414353297853+0.02849237960169003i,-0.14380383153745996-0.5821100409421074i
2.8,70,3.425,8.194241303,-2.130617944,-4.454348027,-0.7815930560075207+0.037088588097713676i,-0.15035901799869222-0.5796161990423887i
2.8,70,3.43,8.220239811,-2.12381189,-4.466152133,-0.7817510498486208+0.04570367925554025i,-0.1568836997714905-0.5770416175741798i
2.8,70,3.435,8.246465744,-2.11699043,-4.478046411,-0.7818151266633467+0.05433768917153748i,-0.16337756036017603-0.5743860068314849i
2.8,70,3.44,8.272933506,-2.110150572,-4.490036061,-0.7817849594960554+0.06299064785420953i,-0.16984024843253678-0.5716490669060879i
2.8,70,3.445,8.299657751,-2.103289347,-4.502126191,-0.7816601848039828+0.07166257720580191i,-0.1762713773277767-0.5688304896971604i
2.8,70,3.45,8.326653398,-2.096403815,-4.514321815,-0.7814404027359718+0.08035348901135336i,-0.18267052467178294-0.5659299609318501i
2.8,70,3.455,8.353935638,-2.089491055,-4.526627836,-0.7811251775107593+0.08906338294031241i,-0.18903723209934917-0.5629471621910428i
2.8,70,3.46,8.381519954,-2.082548171,-4.539049036,-0.7807140378941028+0.09779224456580544i,-0.1953710050826733-0.559881772934579i
2.8,70,3.465,8.409422131,-2.075572287,-4.551590068,-0.780206477773795+0.10654004340660156i,-0.2016713128651262-0.5567334725202984i
2.8,70,3.47,8.437658282,-2.068560545,-4.56425544,-0.7796019568313187+0.11530673099675799i,-0.2079375884989872-0.5535019422114047i
2.8,70,3.475,8.466244862,-2.061510104,-4.577049508,-0.7788999013086184+0.12409223898785379i,-0.21416922898554552-0.5501868671667778i
2.8,70,3.48,8.495198699,-2.054418136,-4.589976459,-0.7780997048682246+0.13289647728862772i,-0.22036559551567905-0.5467879384089932i
2.8,70,3.485,8.524537008,-2.047281822,-4.603040305,-0.7772007295446934+0.14171933224673056i,-0.2265260138087561-0.543304854765i
2.8,70,3.49,8.554277429,-2.040098353,-4.616244867,-0.7762023067850526+0.1505606648771765i,-0.23264977454744037-0.5397373247745529i
2.8,70,3.495,8.584438052,-2.032864925,-4.629593766,-0.7751037385757559+0.1594203091419485i,-0.23873613390574175-0.5360850685617168i
2.8,70,3.5,8.615037449,-2.025578733,-4.643090407,-0.7739042986533482+0.16829807028505356i,-0.24478431416742005-0.5323478196649426i
2.8,70,3.505,8.64530086,-2.018423966,-4.656923499,-0.7725913898618153+0.1771690261435732i,-0.250767411642467-0.5285238770471512i
2.8,70,3.51,8.675486068,-2.011338084,-4.670655207,-0.7711768922005143+0.18600661157033752i,-0.2566794951956912-0.5246494805913919i
2.8,70,3.515,8.705595649,-2.004319565,-4.684290666,-0.7696615857842202+0.19481052116931774i,-0.26252097814463343-0.520725245495876i
2.8,70,3.52,8.735632881,-1.997366761,-4.697835094,-0.768046231330368+0.20358048190977426i,-0.26829227255696964-0.5167517435931896i
2.8,70,3.525,8.765601733,-1.990477902,-4.711293793,-0.7663315686339752+0.2123162520509319i,-0.27399378692042764-0.5127295038748012i
2.8,70,3.53,8.79550685,-1.983651103,-4.724672155,-0.7645183150888136+0.2210176199905989i,-0.2796259238494644-0.5086590131364227i
2.8,70,3.535,8.825353538,-1.976884375,-4.737975664,-0.7626071642588316+0.22968440303963084i,-0.2851890778352878-0.5045407167419129i
2.8,70,3.54,8.855147747,-1.970175629,-4.751209894,-0.7605987845037687+0.2383164461243632i,-0.2906836330456537-0.5003750195030281i
2.8,70,3.545,8.884896059,-1.963522686,-4.764380515,-0.7584938176628029+0.24691362041936554i,-0.29610996118070093-0.4961622866719494i
2.8,70,3.55,8.914605664,-1.956923281,-4.777493291,-0.7562928777999626+0.2554758219130772i,-0.301468419390888-0.4919028450431562i
2.8,70,3.555,8.944284347,-1.950375074,-4.790554079,-0.7539965500149358+0.26400296990910344i,-0.3067593482628744-0.4875969841608649i
2.8,70,3.56,8.973940469,-1.943875654,-4.803568832,-0.751605389322761+0.2724950054661598i,-0.31198306987895885-0.4832449576279197i
2.8,70,3.565,9.003582945,-1.937422547,-4.816543597,-0.749119919605761+0.2809518897798474i,-0.31713988595541587-0.47884698451170365i
2.8,70,3.57,9.033221233,-1.931013221,-4.829484513,-0.7465406326409082+0.289373602509642i,-0.32223007606479664-0.47440325084233365i
2.8,70,3.575,9.062865307,-1.924645096,-4.842397811,-0.743867987205662+0.2977601400546615i,-0.32725389594696586-0.4699139111981316i
2.8,70,3.58,9.092525642,-1.918315546,-4.855289809,-0.7411024082651276+0.30611151378195994i,-0.33221157591332595-0.4653790903730897i
2.8,70,3.585,9.122213198,-1.912021907,-4.868166913,-0.7382442862432078+0.3144277482112548i,-0.3371033193483534-0.46079888512081885i
2.8,70,3.59,9.151939397,-1.905761483,-4.881035611,-0.7352939763802064+0.3227088791601655i,-0.34192930131222987-0.4561733659692391i
2.8,70,3.595,9.181716112,-1.89953155,-4.893902468,-0.7322517981791532+0.3309549518541751i,-0.3466896672479905-0.4515025791000851i
2.8,70,3.6,9.211555642,-1.893329362,-4.906774126,-0.7291180349428816+0.3391660190056746i,-0.3513845317962501-0.44678654828711845i
2.8,70,3.605,9.241470702,-1.887152157,-4.919657296,-0.725892933403679+0.34734213886656395i,-0.35601397772019144-0.4420252768867995i
2.8,70,3.61,9.271474406,-1.880997161,-4.932558752,-0.7225767034470819+0.35548337325900065i,-0.36057805494311085-0.43721874987503473i
2.8,70,3.615,9.301580254,-1.87486159,-4.945485328,-0.7191695179311609+0.3635897855889847i,-0.3650767797004427-0.4323669359235287i
2.8,70,3.62,9.331802114,-1.868742658,-4.958443908,-0.7156715126023777+0.3716614388475505i,-0.369510133807773-0.42746978950918846i
2.8,70,3.625,9.362154217,-1.862637576,-4.971441421,-0.7120827861088518+0.3796983936044053i,-0.3738780640459735-0.422527253049981i
2.8,70,3.63,9.392651141,-1.856543562,-4.984484837,-0.7084034001116132+0.3877007059989169i,-0.37818048166418716-0.4175392590606242i
2.8,70,3.635,9.423307805,-1.850457837,-4.997581151,-0.7046333794941546+0.3956684257333839i,-0.38241726200099724-0.4125057323214831i
2.8,70,3.64,9.45413946,-1.844377633,-5.010737383,-0.7007727126703366+0.40360159407355944i,-0.3865882442237331-0.40742659205408344i
2.8,70,3.645,9.485161683,-1.838300192,-5.023960564,-0.696821351990418+0.4115002418613933i,-0.3906932311854673-0.402301754096696i
2.8,70,3.65,9.516390376,-1.832222771,-5.03725773,-0.6927792142447367+0.41936438754497773i,-0.3947319893988864-0.39713113307351555i
2.8,70,3.655,9.54784176,-1.826142641,-5.05063591,-0.6886461812642795+0.42719403523063276i,-0.39870424912584507-0.3919146445510717i
2.8,70,3.66,9.579532378,-1.82005709,-5.064102118,-0.6844221006171245+0.43498917276205024i,-0.40260970458104706-0.38665220717561116i
2.8,70,3.665,9.611479094,-1.813963424,-5.077663343,-0.6801067863994665+0.44274976983136627i,-0.40644801424794547-0.3813437447853415i
2.8,70,3.67,9.643699101,-1.807858968,-5.091326537,-0.6757000201196744+0.45047577612694634i,-0.41021880130461674-0.37598918849159685i
2.8,70,3.675,9.676209925,-1.801741065,-5.105098605,-0.6712015516735839+0.4581671195226061i,-0.4139216541570322-0.37058847872314443i
2.8,70,3.68,9.709029436,-1.795607077,-5.118986393,-0.666611100408946+0.4658237043128848i,-0.4175561270768433-0.3651415672280843i
2.8,70,3.685,9.742175857,-1.789454386,-5.13299668,-0.6619283562767425+0.47344540949887115i,-0.4211217409404932-0.35964841902798317i
2.8,70,3.69,9.775667781,-1.783280391,-5.14713616,-0.657152981066802+0.48103208712897244i,-0.4246179840661942-0.3541090143191393i
2.8,70,3.695,9.809524185,-1.777082507,-5.161411439,-0.6522846097249323+0.48858356069885767i,-0.42804431314504476-0.34852335031611376i
2.8,70,3.7,9.843764451,-1.770858168,-5.175829014,-0.6473228517485703+0.49609962361467i,-0.4314001542623108-0.3428914430329308i
2.8,70,3.705,9.878408389,-1.764604818,-5.190395267,-0.6422672926577048+0.5035800377234291i,-0.43468490400468274-0.33721332899762746i
2.8,70,3.71,9.913476261,-1.758319919,-5.20511645,-0.6371174955376464+0.5110245319143625i,-0.4378979306490963-0.3314890668961146i
2.8,70,3.715,9.948988809,-1.752000938,-5.219998674,-0.6318730026500162+0.5184328007947318i,-0.441038575428544-0.3257187391416139i
2.8,70,3.72,9.984967289,-1.745645354,-5.235047894,-0.6265333371081244+0.5258045034434942i,-0.4441061538701056-0.3199024533662322i
2.8,70,3.725,10.0214335,-1.739250649,-5.2502699,-0.6210980046127632+0.5331392622459536i,-0.44709995720032064-0.3140403438315527i
2.8,70,3.73,10.05840983,-1.732814309,-5.2656703,-0.6155664952442564+0.5404366618123183i,-0.4500192538128635-0.30813257275543277i
2.8,70,3.735,10.09591929,-1.726333819,-5.281254512,-0.6099382853064708+0.5476962479828618i,-0.4528632907934153-0.30217933155251875i
2.8,70,3.74,10.13398557,-1.719806659,-5.297027747,-0.60421283921836+0.5549175269221426i,-0.4556312954965113-0.29618084198631395i
2.8,70,3.745,10.17263305,-1.713230304,-5.312994997,-0.5983896114484858+0.5620999643044986i,-0.4583224771691123-0.29013735723094786i
2.8,70,3.75,10.21188692,-1.706602215,-5.329161024,-0.5924680484878679+0.5692429845927806i,-0.46093602861557875-0.28404916284112985i
2.8,70,3.755,10.25094406,-1.700058211,-5.345889689,-0.5864525410800016+0.5763222453703643i,-0.4634426484469606-0.27792059820721593i
2.8,70,3.76,10.28996616,-1.693570163,-5.362496343,-0.5803672006176183+0.5833168836194695i,-0.4658675869754156-0.271793749118042i
2.8,70,3.765,10.32895657,-1.687136813,-5.378987514,-0.5742128383090465+0.5902270936937137i,-0.4682114959973319-0.26566879469762233i
2.8,70,3.77,10.36791957,-1.680756777,-5.395369889,-0.5679902295722159+0.5970530863020662i,-0.4704749969262353-0.259545881500727i
2.8,70,3.775,10.40686039,-1.674428552,-5.411650315,-0.5617001133369104+0.6037950867005065i,-0.47265867925965227-0.25342512556938074i
2.8,70,3.78,10.4457852,-1.66815052,-5.427835799,-0.5553431914299926+0.6104533328445073i,-0.4747630991645931-0.2473066145657656i
2.8,70,3.785,10.48470105,-1.661920961,-5.443933506,-0.5489201280459727+0.61702807350621i,-0.476788778185768-0.24119040997456026i
2.8,70,3.79,10.5236159,-1.655738055,-5.459950768,-0.5424315493050805+0.6235195663603176i,-0.4787362020802398-0.23507654936750344i
2.8,70,3.795,10.56253857,-1.649599892,-5.475895075,-0.5358780429008125+0.6299280760428709i,-0.48060581978173994-0.22896504872275691i
2.8,70,3.8,10.60147874,-1.643504478,-5.491774078,-0.5292601578387209+0.636253872187186i,-0.48239804249744306-0.22285590479146417i
2.8,70,3.805,10.6404469,-1.637449743,-5.507595587,-0.5225784042679797+0.6424972274413646i,-0.4841132429394895-0.21674909750374127i
2.8,70,3.81,10.67945437,-1.631433548,-5.52336757,-0.5158332534070587+0.6486584154718809i,-0.485751754693093-0.21064459240622568i
2.8,70,3.815,10.71851323,-1.625453689,-5.53909815,-0.5090251375645916+0.6547377089578459i,-0.4873138717225568-0.2045423431232085i
